Circuit: * C:\Users\dal56\Documents\Oresat\oresat-proto-card\I2C-protection-sims\Draft1.asc

WARNING: Less than two connections to node OPD.  This node is used by M2.
Direct Newton iteration for .op point succeeded.
Semiconductor Device Operating Points:
                        --- Diodes ---
Name:      d3          d2          d1
Model:      d           d           d
Id:      3.34e-08    3.09e-06    3.34e-08
Vd:      3.89e-01    5.06e-01    3.89e-01
Req:     7.75e+05    8.36e+03    7.75e+05
CAP:     0.00e+00    0.00e+00    0.00e+00

                        --- MOSFET Transistors ---
Name:          m4          m3          m2          m1
Model:        pmos        pmos        pmos        pmos
Id:         -3.54e-06   -3.34e-08    0.00e+00   -1.12e-08
Vgs:        -3.09e+00   -5.78e-02   -3.59e+00   -3.34e-02
Vds:        -5.78e-02   -6.39e+00    0.00e+00   -3.59e+00
Vbs:         0.00e+00    0.00e+00    0.00e+00    0.00e+00
Vth:        -0.00e+00   -0.00e+00   -0.00e+00   -0.00e+00
Vdsat:      -3.09e+00   -5.78e-02   -3.59e+00   -3.34e-02
Gm:          1.16e-06    1.16e-06    0.00e+00    6.68e-07
Gds:         6.07e-05    0.00e+00    7.18e-05    0.00e+00
Gmb:         0.00e+00    0.00e+00    0.00e+00    0.00e+00
Cbd:         0.00e+00    0.00e+00    0.00e+00    0.00e+00
Cbs:         0.00e+00    0.00e+00    0.00e+00    0.00e+00
Cgsov:       0.00e+00    0.00e+00    0.00e+00    0.00e+00
Cgdov:       0.00e+00    0.00e+00    0.00e+00    0.00e+00
Cgbov:       0.00e+00    0.00e+00    0.00e+00    0.00e+00
Cgs:         0.00e+00    0.00e+00    0.00e+00    0.00e+00
Cgd:         0.00e+00    0.00e+00    0.00e+00    0.00e+00
Cgb:         0.00e+00    0.00e+00    0.00e+00    0.00e+00



Date: Thu Jan 02 16:36:59 2020
Total elapsed time: 0.095 seconds.

tnom = 27
temp = 27
method = trap
totiter = 16
traniter = 0
tranpoints = 0
accept = 0
rejected = 0
matrix size = 11
fillins = 1
solver = Normal
Matrix Compiler1: 704 bytes object code size
Matrix Compiler2: 929 bytes object code size
